
T068C 000:293 SEGGER J-Link V4.96d Log File (0000ms, 0269ms total)
T068C 000:293 DLL Compiled: Jan 29 2015 11:45:37 (0000ms, 0269ms total)
T068C 000:293 Logging started @ 2022-08-02 10:54 (0000ms, 0269ms total)
T068C 000:293 JLINK_SetWarnOutHandler(...) (0000ms, 0269ms total)
T068C 000:293 JLINK_OpenEx(...)
Firmware: J-Link V9 compiled Oct 25 2018 11:46:07
Hardware: V9.30
S/N: 36310083
Feature(s): RDI, GDB, FlashDL, FlashBP, JFlash  returns O.K. (0268ms, 0537ms total)
T068C 000:561 JLINK_SetErrorOutHandler(...) (0000ms, 0537ms total)
T068C 000:561 JLINK_ExecCommand("ProjectFile = "E:\sync\SynologyDrive\work\democode\CS32F10\CS32F03X\CS32F03X\Chipsea.CS32F0xx_DFP.1.0.5\Boards\EVB_32F03x_START\EVB_32F03x_START_DEMO\source\GW_ad_sync_select_band_v1.0_5g\JLinkSettings.ini"", ...)Device "CORTEX-M0" selected.  returns 0x00 (0002ms, 0539ms total)
T068C 000:567 JLINK_ExecCommand("Device = CS32F031K8U6", ...)Device "CORTEX-M0" selected.  returns 0x00 (0003ms, 0542ms total)
T068C 000:570 JLINK_ExecCommand("DisableConnectionTimeout", ...)  returns 0x01 (0000ms, 0542ms total)
T068C 000:570 JLINK_GetHardwareVersion()  returns 0x16B48 (0000ms, 0542ms total)
T068C 000:570 JLINK_GetDLLVersion()  returns 49604 (0000ms, 0542ms total)
T068C 000:570 JLINK_GetFirmwareString(...) (0000ms, 0542ms total)
T068C 000:577 JLINK_GetDLLVersion()  returns 49604 (0000ms, 0542ms total)
T068C 000:577 JLINK_GetCompileDateTime() (0000ms, 0542ms total)
T068C 000:579 JLINK_GetFirmwareString(...) (0000ms, 0542ms total)
T068C 000:580 JLINK_GetHardwareVersion()  returns 0x16B48 (0000ms, 0542ms total)
T068C 000:585 JLINK_TIF_Select(JLINKARM_TIF_SWD)  returns 0x00 (0002ms, 0544ms total)
T068C 000:587 JLINK_SetSpeed(2000) (0000ms, 0544ms total)
T068C 000:587 JLINK_GetId() >0x108 TIF>Found SWD-DP with ID 0x0BB11477 >0x0D TIF> >0x21 TIF> >0x0D TIF> >0x28 TIF> >0x0D TIF> >0x28 TIF> >0x0D TIF> >0x21 TIF> >0x0D TIF> >0x28 TIF> >0x0D TIF> >0x21 TIF> >0x0D TIF> >0x21 TIF> >0x0D TIF> >0x21 TIF> >0x0D TIF> >0x21 TIF> >0x0D TIF> >0x28 TIF> >0x0D TIF> >0x28 TIF> >0x0D TIF> >0x21 TIF> >0x0D TIF> >0x28 TIF> >0x0D TIF> >0x28 TIF> >0x0D TIF> >0x28 TIF> >0x0D TIF> >0x21 TIF> >0x0D TIF> >0x21 TIF> >0x0D TIF> >0x28 TIF> >0x0D TIF> >0x21 TIF> >0x0D TIF>
 >0x21 TIF>Found Cortex-M0 r0p0, Little endian. -- CPU_WriteMem(4 bytes @ 0xE0002000) -- CPU_ReadMem(4 bytes @ 0xE000EDF0) -- CPU_WriteMem(4 bytes @ 0xE000EDF0) -- CPU_ReadMem(4 bytes @ 0xE0002000)FPUnit: 4 code (BP) slots and 0 literal slots -- CPU_ReadMem(4 bytes @ 0xE000EDFC) -- CPU_WriteMem(4 bytes @ 0xE000EDFC) -- CPU_ReadMem(4 bytes @ 0xE0001000) -- CPU_WriteMem(4 bytes @ 0xE0001000) -- CPU_ReadMem(4 bytes @ 0xE00FF018) >0x0D TIF> >0x21 TIF>  returns 0x0BB11477 (0035ms, 0579ms total)
T068C 000:622 JLINK_GetDLLVersion()  returns 49604 (0000ms, 0579ms total)
T068C 000:622 JLINK_CORE_GetFound()  returns 0x60000FF (0000ms, 0579ms total)
T068C 000:622 JLINK_GetDebugInfo(0x100) -- Value=0xE00FF003  returns 0x00 (0000ms, 0579ms total)
T068C 000:624 JLINK_ReadMem (0xE00FF000, 0x0020 Bytes, ...) -- CPU is running -- CPU_ReadMem(32 bytes @ 0xE00FF000) - Data: 03 F0 F0 FF 03 20 F0 FF 03 30 F0 FF 00 00 00 00 ...  returns 0x00 (0001ms, 0580ms total)
T068C 000:625 JLINK_ReadMem (0xE000EFF0, 0x0010 Bytes, ...) -- CPU is running -- CPU_ReadMem(16 bytes @ 0xE000EFF0) - Data: 0D 00 00 00 E0 00 00 00 05 00 00 00 B1 00 00 00  returns 0x00 (0001ms, 0581ms total)
T068C 000:626 JLINK_ReadMem (0xE000EFD0, 0x0020 Bytes, ...) -- CPU is running -- CPU_ReadMem(32 bytes @ 0xE000EFD0) - Data: 04 00 00 00 00 00 00 00 00 00 00 00 00 00 00 00 ...  returns 0x00 (0001ms, 0582ms total)
T068C 000:627 JLINK_ReadMem (0xE0001FF0, 0x0010 Bytes, ...) -- CPU is running -- CPU_ReadMem(16 bytes @ 0xE0001FF0) - Data: 0D 00 00 00 E0 00 00 00 05 00 00 00 B1 00 00 00  returns 0x00 (0001ms, 0583ms total)
T068C 000:628 JLINK_ReadMem (0xE0001FD0, 0x0020 Bytes, ...) -- CPU is running -- CPU_ReadMem(32 bytes @ 0xE0001FD0) - Data: 04 00 00 00 00 00 00 00 00 00 00 00 00 00 00 00 ...  returns 0x00 (0002ms, 0585ms total)
T068C 000:630 JLINK_ReadMem (0xE0002FF0, 0x0010 Bytes, ...) -- CPU is running -- CPU_ReadMem(16 bytes @ 0xE0002FF0) - Data: 0D 00 00 00 E0 00 00 00 05 00 00 00 B1 00 00 00  returns 0x00 (0000ms, 0585ms total)
T068C 000:630 JLINK_ReadMem (0xE0002FD0, 0x0020 Bytes, ...) -- CPU is running -- CPU_ReadMem(32 bytes @ 0xE0002FD0) - Data: 04 00 00 00 00 00 00 00 00 00 00 00 00 00 00 00 ...  returns 0x00 (0001ms, 0586ms total)
T068C 000:631 JLINK_ReadMemU32(0xE000ED00, 0x0001 Items, ...) -- CPU is running -- CPU_ReadMem(4 bytes @ 0xE000ED00) - Data: 00 C2 0C 41  returns 0x01 (0001ms, 0587ms total)
T068C 000:632 JLINK_SetResetType(JLINKARM_RESET_TYPE_NORMAL)  returns JLINKARM_RESET_TYPE_NORMAL (0000ms, 0587ms total)
T068C 000:632 JLINK_Reset() -- CPU is running -- CPU_WriteMem(4 bytes @ 0xE000EDF0) -- CPU is running -- CPU_WriteMem(4 bytes @ 0xE000EDFC) >0x35 TIF> -- CPU is running -- CPU_WriteMem(4 bytes @ 0xE000ED0C) -- CPU is running -- CPU_ReadMem(4 bytes @ 0xE000EDF0) -- CPU is running -- CPU_ReadMem(4 bytes @ 0xE000EDF0) -- CPU is running -- CPU_WriteMem(4 bytes @ 0xE000EDF0) -- CPU is running -- CPU_WriteMem(4 bytes @ 0xE000EDFC) -- CPU is running -- CPU_ReadMem(4 bytes @ 0xE000EDF0)
 -- CPU_WriteMem(4 bytes @ 0xE0002000) -- CPU_ReadMem(4 bytes @ 0xE000EDFC) -- CPU_ReadMem(4 bytes @ 0xE0001000) -- CPU_WriteMem(4 bytes @ 0xE0001000) (0022ms, 0609ms total)
T068C 000:654 JLINK_Halt()  returns 0x00 (0000ms, 0609ms total)
T068C 000:654 JLINK_IsHalted()  returns TRUE (0000ms, 0609ms total)
T068C 000:654 JLINK_ReadMemU32(0xE000EDF0, 0x0001 Items, ...) -- CPU_ReadMem(4 bytes @ 0xE000EDF0) - Data: 03 00 03 00  returns 0x01 (0001ms, 0610ms total)
T068C 000:655 JLINK_WriteU32(0xE000EDF0, 0xA05F0003) -- CPU_WriteMem(4 bytes @ 0xE000EDF0)  returns 0x00 (0001ms, 0611ms total)
T068C 000:656 JLINK_WriteU32(0xE000EDFC, 0x01000000) -- CPU_WriteMem(4 bytes @ 0xE000EDFC)  returns 0x00 (0000ms, 0611ms total)
T068C 000:662 JLINK_GetHWStatus(...)  returns 0x00 (0000ms, 0611ms total)
T068C 000:666 JLINK_GetNumBPUnits(Type = 0xFFFFFF00)  returns 0x04 (0000ms, 0611ms total)
T068C 000:666 JLINK_GetNumBPUnits(Type = 0xF0)  returns 0x2000 (0000ms, 0611ms total)
T068C 000:666 JLINK_GetNumWPUnits()  returns 0x02 (0000ms, 0611ms total)
T068C 000:669 JLINK_GetSpeed()  returns 0x7D0 (0000ms, 0611ms total)
T068C 000:673 JLINK_ReadMemU32(0xE000E004, 0x0001 Items, ...) -- CPU_ReadMem(4 bytes @ 0xE000E004) - Data: 00 00 00 00  returns 0x01 (0001ms, 0612ms total)
T068C 000:674 JLINK_Halt()  returns 0x00 (0000ms, 0612ms total)
T068C 000:674 JLINK_IsHalted()  returns TRUE (0000ms, 0612ms total)
T068C 000:675 JLINK_WriteMem(0x20000000, 0x0170 Bytes, ...) - Data: 00 BE 0A E0 0D 78 2D 06 68 40 08 24 40 00 00 D3 ... -- CPU_WriteMem(368 bytes @ 0x20000000)  returns 0x170 (0005ms, 0617ms total)
T068C 000:680 JLINK_WriteReg(R0, 0x08000000)  returns 0x00 (0000ms, 0617ms total)
T068C 000:680 JLINK_WriteReg(R1, 0x00B71B00)  returns 0x00 (0000ms, 0617ms total)
T068C 000:680 JLINK_WriteReg(R2, 0x00000001)  returns 0x00 (0000ms, 0617ms total)
T068C 000:680 JLINK_WriteReg(R3, 0x00000000)  returns 0x00 (0000ms, 0617ms total)
T068C 000:680 JLINK_WriteReg(R4, 0x00000000)  returns 0x00 (0000ms, 0617ms total)
T068C 000:680 JLINK_WriteReg(R5, 0x00000000)  returns 0x00 (0000ms, 0617ms total)
T068C 000:680 JLINK_WriteReg(R6, 0x00000000)  returns 0x00 (0000ms, 0617ms total)
T068C 000:680 JLINK_WriteReg(R7, 0x00000000)  returns 0x00 (0000ms, 0617ms total)
T068C 000:680 JLINK_WriteReg(R8, 0x00000000)  returns 0x00 (0000ms, 0617ms total)
T068C 000:680 JLINK_WriteReg(R9, 0x2000016C)  returns 0x00 (0000ms, 0617ms total)
T068C 000:680 JLINK_WriteReg(R10, 0x00000000)  returns 0x00 (0000ms, 0617ms total)
T068C 000:680 JLINK_WriteReg(R11, 0x00000000)  returns 0x00 (0000ms, 0617ms total)
T068C 000:680 JLINK_WriteReg(R12, 0x00000000)  returns 0x00 (0000ms, 0617ms total)
T068C 000:680 JLINK_WriteReg(R13 (SP), 0x20001000)  returns 0x00 (0000ms, 0617ms total)
T068C 000:680 JLINK_WriteReg(R14, 0x20000001)  returns 0x00 (0000ms, 0617ms total)
T068C 000:680 JLINK_WriteReg(R15 (PC), 0x20000038)  returns 0x00 (0000ms, 0617ms total)
T068C 000:680 JLINK_WriteReg(XPSR, 0x01000000)  returns 0x00 (0000ms, 0617ms total)
T068C 000:680 JLINK_WriteReg(MSP, 0x20001000)  returns 0x00 (0000ms, 0617ms total)
T068C 000:680 JLINK_WriteReg(PSP, 0x20001000)  returns 0x00 (0000ms, 0617ms total)
T068C 000:680 JLINK_WriteReg(CFBP, 0x00000000)  returns 0x00 (0000ms, 0617ms total)
T068C 000:680 JLINK_SetBPEx(Addr = 0x20000000, Type = 0xFFFFFFF2) -- CPU_ReadMem(4 bytes @ 0x20000000) -- CPU_WriteMem(4 bytes @ 0x20000000) -- CPU_ReadMem(4 bytes @ 0x20000000) -- CPU_WriteMem(4 bytes @ 0x20000000) -- CPU_ReadMem(2 bytes @ 0x20000000)  returns 0x00000001 (0003ms, 0620ms total)
T068C 000:683 JLINK_Go() -- CPU_WriteMem(2 bytes @ 0x20000000) -- CPU_WriteMem(4 bytes @ 0xE0002008) -- CPU_WriteMem(4 bytes @ 0xE000200C) -- CPU_WriteMem(4 bytes @ 0xE0002010) -- CPU_WriteMem(4 bytes @ 0xE0002014) -- CPU_WriteMem(4 bytes @ 0xE0001004) (0008ms, 0628ms total)
T068C 000:691 JLINK_IsHalted() -- CPU_ReadMem(2 bytes @ 0x20000000)  returns TRUE (0005ms, 0633ms total)
T068C 000:696 JLINK_ReadReg(R15 (PC))  returns 0x20000000 (0000ms, 0628ms total)
T068C 000:696 JLINK_ClrBPEx(BPHandle = 0x00000001)  returns 0x00 (0000ms, 0628ms total)
T068C 000:696 JLINK_ReadReg(R0)  returns 0x00000000 (0000ms, 0628ms total)
T068C 000:696 JLINK_WriteReg(R0, 0x08000000)  returns 0x00 (0000ms, 0628ms total)
T068C 000:696 JLINK_WriteReg(R1, 0x00B71B00)  returns 0x00 (0000ms, 0628ms total)
T068C 000:696 JLINK_WriteReg(R2, 0x00000001)  returns 0x00 (0000ms, 0628ms total)
T068C 000:696 JLINK_WriteReg(R3, 0x00000000)  returns 0x00 (0000ms, 0628ms total)
T068C 000:696 JLINK_WriteReg(R4, 0x00000000)  returns 0x00 (0000ms, 0628ms total)
T068C 000:696 JLINK_WriteReg(R5, 0x00000000)  returns 0x00 (0000ms, 0628ms total)
T068C 000:696 JLINK_WriteReg(R6, 0x00000000)  returns 0x00 (0000ms, 0628ms total)
T068C 000:696 JLINK_WriteReg(R7, 0x00000000)  returns 0x00 (0000ms, 0628ms total)
T068C 000:696 JLINK_WriteReg(R8, 0x00000000)  returns 0x00 (0000ms, 0628ms total)
T068C 000:696 JLINK_WriteReg(R9, 0x2000016C)  returns 0x00 (0000ms, 0628ms total)
T068C 000:696 JLINK_WriteReg(R10, 0x00000000)  returns 0x00 (0000ms, 0628ms total)
T068C 000:696 JLINK_WriteReg(R11, 0x00000000)  returns 0x00 (0000ms, 0628ms total)
T068C 000:696 JLINK_WriteReg(R12, 0x00000000)  returns 0x00 (0000ms, 0628ms total)
T068C 000:696 JLINK_WriteReg(R13 (SP), 0x20001000)  returns 0x00 (0000ms, 0628ms total)
T068C 000:696 JLINK_WriteReg(R14, 0x20000001)  returns 0x00 (0000ms, 0628ms total)
T068C 000:696 JLINK_WriteReg(R15 (PC), 0x20000074)  returns 0x00 (0000ms, 0628ms total)
T068C 000:696 JLINK_WriteReg(XPSR, 0x01000000)  returns 0x00 (0000ms, 0628ms total)
T068C 000:696 JLINK_WriteReg(MSP, 0x20001000)  returns 0x00 (0000ms, 0628ms total)
T068C 000:696 JLINK_WriteReg(PSP, 0x20001000)  returns 0x00 (0000ms, 0628ms total)
T068C 000:696 JLINK_WriteReg(CFBP, 0x00000000)  returns 0x00 (0000ms, 0628ms total)
T068C 000:696 JLINK_SetBPEx(Addr = 0x20000000, Type = 0xFFFFFFF2)  returns 0x00000002 (0000ms, 0628ms total)
T068C 000:696 JLINK_Go() (0002ms, 0630ms total)
T068C 000:698 JLINK_IsHalted()  returns FALSE (0001ms, 0631ms total)
T068C 000:730 JLINK_IsHalted() -- CPU_ReadMem(2 bytes @ 0x20000000)  returns TRUE (0004ms, 0634ms total)
T068C 000:734 JLINK_ReadReg(R15 (PC))  returns 0x20000000 (0000ms, 0630ms total)
T068C 000:734 JLINK_ClrBPEx(BPHandle = 0x00000002)  returns 0x00 (0000ms, 0630ms total)
T068C 000:734 JLINK_ReadReg(R0)  returns 0x00000000 (0001ms, 0631ms total)
T068C 000:786 JLINK_WriteReg(R0, 0x00000001)  returns 0x00 (0000ms, 0631ms total)
T068C 000:786 JLINK_WriteReg(R1, 0x00B71B00)  returns 0x00 (0000ms, 0631ms total)
T068C 000:786 JLINK_WriteReg(R2, 0x00000001)  returns 0x00 (0000ms, 0631ms total)
T068C 000:786 JLINK_WriteReg(R3, 0x00000000)  returns 0x00 (0000ms, 0631ms total)
T068C 000:786 JLINK_WriteReg(R4, 0x00000000)  returns 0x00 (0000ms, 0631ms total)
T068C 000:786 JLINK_WriteReg(R5, 0x00000000)  returns 0x00 (0000ms, 0631ms total)
T068C 000:786 JLINK_WriteReg(R6, 0x00000000)  returns 0x00 (0000ms, 0631ms total)
T068C 000:786 JLINK_WriteReg(R7, 0x00000000)  returns 0x00 (0000ms, 0631ms total)
T068C 000:786 JLINK_WriteReg(R8, 0x00000000)  returns 0x00 (0000ms, 0631ms total)
T068C 000:786 JLINK_WriteReg(R9, 0x2000016C)  returns 0x00 (0000ms, 0631ms total)
T068C 000:786 JLINK_WriteReg(R10, 0x00000000)  returns 0x00 (0000ms, 0631ms total)
T068C 000:786 JLINK_WriteReg(R11, 0x00000000)  returns 0x00 (0000ms, 0631ms total)
T068C 000:786 JLINK_WriteReg(R12, 0x00000000)  returns 0x00 (0000ms, 0631ms total)
T068C 000:786 JLINK_WriteReg(R13 (SP), 0x20001000)  returns 0x00 (0000ms, 0631ms total)
T068C 000:786 JLINK_WriteReg(R14, 0x20000001)  returns 0x00 (0000ms, 0631ms total)
T068C 000:786 JLINK_WriteReg(R15 (PC), 0x20000066)  returns 0x00 (0000ms, 0631ms total)
T068C 000:786 JLINK_WriteReg(XPSR, 0x01000000)  returns 0x00 (0000ms, 0631ms total)
T068C 000:786 JLINK_WriteReg(MSP, 0x20001000)  returns 0x00 (0000ms, 0631ms total)
T068C 000:786 JLINK_WriteReg(PSP, 0x20001000)  returns 0x00 (0000ms, 0631ms total)
T068C 000:786 JLINK_WriteReg(CFBP, 0x00000000)  returns 0x00 (0000ms, 0631ms total)
T068C 000:786 JLINK_SetBPEx(Addr = 0x20000000, Type = 0xFFFFFFF2)  returns 0x00000003 (0000ms, 0631ms total)
T068C 000:786 JLINK_Go() (0003ms, 0634ms total)
T068C 000:789 JLINK_IsHalted() -- CPU_ReadMem(2 bytes @ 0x20000000)  returns TRUE (0005ms, 0639ms total)
T068C 000:794 JLINK_ReadReg(R15 (PC))  returns 0x20000000 (0000ms, 0634ms total)
T068C 000:794 JLINK_ClrBPEx(BPHandle = 0x00000003)  returns 0x00 (0000ms, 0634ms total)
T068C 000:794 JLINK_ReadReg(R0)  returns 0x00000000 (0000ms, 0634ms total)
T068C 000:798 JLINK_WriteMem(0x20000000, 0x0170 Bytes, ...) - Data: 00 BE 0A E0 0D 78 2D 06 68 40 08 24 40 00 00 D3 ... -- CPU_WriteMem(368 bytes @ 0x20000000)  returns 0x170 (0004ms, 0638ms total)
T068C 000:802 JLINK_WriteReg(R0, 0x08000000)  returns 0x00 (0000ms, 0638ms total)
T068C 000:802 JLINK_WriteReg(R1, 0x00B71B00)  returns 0x00 (0000ms, 0638ms total)
T068C 000:802 JLINK_WriteReg(R2, 0x00000002)  returns 0x00 (0000ms, 0638ms total)
T068C 000:802 JLINK_WriteReg(R3, 0x00000000)  returns 0x00 (0000ms, 0638ms total)
T068C 000:802 JLINK_WriteReg(R4, 0x00000000)  returns 0x00 (0000ms, 0638ms total)
T068C 000:802 JLINK_WriteReg(R5, 0x00000000)  returns 0x00 (0000ms, 0638ms total)
T068C 000:802 JLINK_WriteReg(R6, 0x00000000)  returns 0x00 (0000ms, 0638ms total)
T068C 000:802 JLINK_WriteReg(R7, 0x00000000)  returns 0x00 (0000ms, 0638ms total)
T068C 000:802 JLINK_WriteReg(R8, 0x00000000)  returns 0x00 (0000ms, 0638ms total)
T068C 000:802 JLINK_WriteReg(R9, 0x2000016C)  returns 0x00 (0000ms, 0638ms total)
T068C 000:802 JLINK_WriteReg(R10, 0x00000000)  returns 0x00 (0000ms, 0638ms total)
T068C 000:802 JLINK_WriteReg(R11, 0x00000000)  returns 0x00 (0000ms, 0638ms total)
T068C 000:802 JLINK_WriteReg(R12, 0x00000000)  returns 0x00 (0000ms, 0638ms total)
T068C 000:802 JLINK_WriteReg(R13 (SP), 0x20001000)  returns 0x00 (0000ms, 0638ms total)
T068C 000:802 JLINK_WriteReg(R14, 0x20000001)  returns 0x00 (0000ms, 0638ms total)
T068C 000:802 JLINK_WriteReg(R15 (PC), 0x20000038)  returns 0x00 (0000ms, 0638ms total)
T068C 000:802 JLINK_WriteReg(XPSR, 0x01000000)  returns 0x00 (0000ms, 0638ms total)
T068C 000:802 JLINK_WriteReg(MSP, 0x20001000)  returns 0x00 (0000ms, 0638ms total)
T068C 000:802 JLINK_WriteReg(PSP, 0x20001000)  returns 0x00 (0000ms, 0638ms total)
T068C 000:802 JLINK_WriteReg(CFBP, 0x00000000)  returns 0x00 (0000ms, 0638ms total)
T068C 000:802 JLINK_SetBPEx(Addr = 0x20000000, Type = 0xFFFFFFF2) -- CPU_ReadMem(4 bytes @ 0x20000000) -- CPU_WriteMem(4 bytes @ 0x20000000) -- CPU_ReadMem(4 bytes @ 0x20000000) -- CPU_WriteMem(4 bytes @ 0x20000000) -- CPU_ReadMem(2 bytes @ 0x20000000)  returns 0x00000004 (0004ms, 0642ms total)
T068C 000:806 JLINK_Go() -- CPU_WriteMem(2 bytes @ 0x20000000) (0002ms, 0644ms total)
T068C 000:808 JLINK_IsHalted() -- CPU_ReadMem(2 bytes @ 0x20000000)  returns TRUE (0005ms, 0649ms total)
T068C 000:813 JLINK_ReadReg(R15 (PC))  returns 0x20000000 (0000ms, 0644ms total)
T068C 000:813 JLINK_ClrBPEx(BPHandle = 0x00000004)  returns 0x00 (0000ms, 0644ms total)
T068C 000:813 JLINK_ReadReg(R0)  returns 0x00000000 (0000ms, 0644ms total)
T068C 000:814 JLINK_WriteMem(0x20000170, 0x0290 Bytes, ...) - Data: C8 08 00 20 CD 00 00 08 2D 0B 00 08 29 0B 00 08 ... -- CPU_WriteMem(656 bytes @ 0x20000170)  returns 0x290 (0005ms, 0649ms total)
T068C 000:819 JLINK_WriteMem(0x20000400, 0x0170 Bytes, ...) - Data: C0 1A 91 41 36 05 00 1C 71 41 CE 07 40 08 30 43 ... -- CPU_WriteMem(368 bytes @ 0x20000400)  returns 0x170 (0004ms, 0653ms total)
T068C 000:823 JLINK_WriteReg(R0, 0x08000000)  returns 0x00 (0000ms, 0653ms total)
T068C 000:823 JLINK_WriteReg(R1, 0x00000400)  returns 0x00 (0000ms, 0653ms total)
T068C 000:823 JLINK_WriteReg(R2, 0x20000170)  returns 0x00 (0000ms, 0653ms total)
T068C 000:823 JLINK_WriteReg(R3, 0x00000000)  returns 0x00 (0000ms, 0653ms total)
T068C 000:823 JLINK_WriteReg(R4, 0x00000000)  returns 0x00 (0000ms, 0653ms total)
T068C 000:823 JLINK_WriteReg(R5, 0x00000000)  returns 0x00 (0000ms, 0653ms total)
T068C 000:823 JLINK_WriteReg(R6, 0x00000000)  returns 0x00 (0000ms, 0653ms total)
T068C 000:823 JLINK_WriteReg(R7, 0x00000000)  returns 0x00 (0000ms, 0653ms total)
T068C 000:823 JLINK_WriteReg(R8, 0x00000000)  returns 0x00 (0000ms, 0653ms total)
T068C 000:823 JLINK_WriteReg(R9, 0x2000016C)  returns 0x00 (0000ms, 0653ms total)
T068C 000:823 JLINK_WriteReg(R10, 0x00000000)  returns 0x00 (0000ms, 0653ms total)
T068C 000:823 JLINK_WriteReg(R11, 0x00000000)  returns 0x00 (0000ms, 0653ms total)
T068C 000:823 JLINK_WriteReg(R12, 0x00000000)  returns 0x00 (0000ms, 0653ms total)
T068C 000:823 JLINK_WriteReg(R13 (SP), 0x20001000)  returns 0x00 (0000ms, 0653ms total)
T068C 000:823 JLINK_WriteReg(R14, 0x20000001)  returns 0x00 (0000ms, 0653ms total)
T068C 000:823 JLINK_WriteReg(R15 (PC), 0x200000FA)  returns 0x00 (0000ms, 0653ms total)
T068C 000:823 JLINK_WriteReg(XPSR, 0x01000000)  returns 0x00 (0000ms, 0653ms total)
T068C 000:823 JLINK_WriteReg(MSP, 0x20001000)  returns 0x00 (0000ms, 0653ms total)
T068C 000:823 JLINK_WriteReg(PSP, 0x20001000)  returns 0x00 (0000ms, 0653ms total)
T068C 000:823 JLINK_WriteReg(CFBP, 0x00000000)  returns 0x00 (0000ms, 0653ms total)
T068C 000:823 JLINK_SetBPEx(Addr = 0x20000000, Type = 0xFFFFFFF2)  returns 0x00000005 (0000ms, 0653ms total)
T068C 000:823 JLINK_Go() (0002ms, 0655ms total)
T068C 000:825 JLINK_IsHalted()  returns FALSE (0001ms, 0656ms total)
T068C 000:836 JLINK_IsHalted()  returns FALSE (0000ms, 0655ms total)
T068C 000:838 JLINK_IsHalted()  returns FALSE (0000ms, 0655ms total)
T068C 000:840 JLINK_IsHalted()  returns FALSE (0000ms, 0655ms total)
T068C 000:842 JLINK_IsHalted() -- CPU_ReadMem(2 bytes @ 0x20000000)  returns TRUE (0005ms, 0660ms total)
T068C 000:847 JLINK_ReadReg(R15 (PC))  returns 0x20000000 (0000ms, 0655ms total)
T068C 000:847 JLINK_ClrBPEx(BPHandle = 0x00000005)  returns 0x00 (0000ms, 0655ms total)
T068C 000:847 JLINK_ReadReg(R0)  returns 0x00000000 (0000ms, 0655ms total)
T068C 000:847 JLINK_WriteMem(0x20000170, 0x0290 Bytes, ...) - Data: 61 46 00 90 1C 46 50 1A B4 41 03 D3 00 98 40 1C ... -- CPU_WriteMem(656 bytes @ 0x20000170)  returns 0x290 (0006ms, 0661ms total)
T068C 000:853 JLINK_WriteMem(0x20000400, 0x0170 Bytes, ...) - Data: DF E7 00 00 4A 00 09 03 01 23 09 0B 1B 05 19 43 ... -- CPU_WriteMem(368 bytes @ 0x20000400)  returns 0x170 (0004ms, 0665ms total)
T068C 000:857 JLINK_WriteReg(R0, 0x08000400)  returns 0x00 (0000ms, 0665ms total)
T068C 000:857 JLINK_WriteReg(R1, 0x00000400)  returns 0x00 (0000ms, 0665ms total)
T068C 000:857 JLINK_WriteReg(R2, 0x20000170)  returns 0x00 (0000ms, 0665ms total)
T068C 000:857 JLINK_WriteReg(R3, 0x00000000)  returns 0x00 (0000ms, 0665ms total)
T068C 000:857 JLINK_WriteReg(R4, 0x00000000)  returns 0x00 (0000ms, 0665ms total)
T068C 000:857 JLINK_WriteReg(R5, 0x00000000)  returns 0x00 (0000ms, 0665ms total)
T068C 000:857 JLINK_WriteReg(R6, 0x00000000)  returns 0x00 (0000ms, 0665ms total)
T068C 000:857 JLINK_WriteReg(R7, 0x00000000)  returns 0x00 (0000ms, 0665ms total)
T068C 000:857 JLINK_WriteReg(R8, 0x00000000)  returns 0x00 (0000ms, 0665ms total)
T068C 000:857 JLINK_WriteReg(R9, 0x2000016C)  returns 0x00 (0000ms, 0665ms total)
T068C 000:857 JLINK_WriteReg(R10, 0x00000000)  returns 0x00 (0000ms, 0665ms total)
T068C 000:857 JLINK_WriteReg(R11, 0x00000000)  returns 0x00 (0000ms, 0665ms total)
T068C 000:857 JLINK_WriteReg(R12, 0x00000000)  returns 0x00 (0000ms, 0665ms total)
T068C 000:857 JLINK_WriteReg(R13 (SP), 0x20001000)  returns 0x00 (0000ms, 0665ms total)
T068C 000:857 JLINK_WriteReg(R14, 0x20000001)  returns 0x00 (0000ms, 0665ms total)
T068C 000:857 JLINK_WriteReg(R15 (PC), 0x200000FA)  returns 0x00 (0000ms, 0665ms total)
T068C 000:857 JLINK_WriteReg(XPSR, 0x01000000)  returns 0x00 (0000ms, 0665ms total)
T068C 000:857 JLINK_WriteReg(MSP, 0x20001000)  returns 0x00 (0000ms, 0665ms total)
T068C 000:857 JLINK_WriteReg(PSP, 0x20001000)  returns 0x00 (0000ms, 0665ms total)
T068C 000:857 JLINK_WriteReg(CFBP, 0x00000000)  returns 0x00 (0000ms, 0665ms total)
T068C 000:857 JLINK_SetBPEx(Addr = 0x20000000, Type = 0xFFFFFFF2)  returns 0x00000006 (0000ms, 0665ms total)
T068C 000:857 JLINK_Go() (0002ms, 0667ms total)
T068C 000:859 JLINK_IsHalted()  returns FALSE (0001ms, 0668ms total)
T068C 000:863 JLINK_IsHalted()  returns FALSE (0000ms, 0667ms total)
T068C 000:865 JLINK_IsHalted()  returns FALSE (0000ms, 0667ms total)
T068C 000:868 JLINK_IsHalted()  returns FALSE (0001ms, 0668ms total)
T068C 000:871 JLINK_IsHalted()  returns FALSE (0000ms, 0667ms total)
T068C 000:873 JLINK_IsHalted()  returns FALSE (0000ms, 0667ms total)
T068C 000:875 JLINK_IsHalted()  returns FALSE (0000ms, 0667ms total)
T068C 000:883 JLINK_IsHalted() -- CPU_ReadMem(2 bytes @ 0x20000000)  returns TRUE (0005ms, 0672ms total)
T068C 000:888 JLINK_ReadReg(R15 (PC))  returns 0x20000000 (0000ms, 0667ms total)
T068C 000:888 JLINK_ClrBPEx(BPHandle = 0x00000006)  returns 0x00 (0000ms, 0667ms total)
T068C 000:888 JLINK_ReadReg(R0)  returns 0x00000000 (0000ms, 0667ms total)
T068C 000:888 JLINK_WriteMem(0x20000170, 0x0290 Bytes, ...) - Data: 81 B2 25 AA 04 A8 02 F0 9D FA 00 26 23 E0 04 A8 ... -- CPU_WriteMem(656 bytes @ 0x20000170)  returns 0x290 (0006ms, 0673ms total)
T068C 000:894 JLINK_WriteMem(0x20000400, 0x0170 Bytes, ...) - Data: 01 46 3B 46 2A 46 01 20 FF F7 AE FF F8 BD 00 00 ... -- CPU_WriteMem(368 bytes @ 0x20000400)  returns 0x170 (0004ms, 0677ms total)
T068C 000:898 JLINK_WriteReg(R0, 0x08000800)  returns 0x00 (0000ms, 0677ms total)
T068C 000:898 JLINK_WriteReg(R1, 0x00000400)  returns 0x00 (0000ms, 0677ms total)
T068C 000:898 JLINK_WriteReg(R2, 0x20000170)  returns 0x00 (0000ms, 0677ms total)
T068C 000:898 JLINK_WriteReg(R3, 0x00000000)  returns 0x00 (0000ms, 0677ms total)
T068C 000:898 JLINK_WriteReg(R4, 0x00000000)  returns 0x00 (0000ms, 0677ms total)
T068C 000:898 JLINK_WriteReg(R5, 0x00000000)  returns 0x00 (0000ms, 0677ms total)
T068C 000:898 JLINK_WriteReg(R6, 0x00000000)  returns 0x00 (0000ms, 0677ms total)
T068C 000:898 JLINK_WriteReg(R7, 0x00000000)  returns 0x00 (0000ms, 0677ms total)
T068C 000:898 JLINK_WriteReg(R8, 0x00000000)  returns 0x00 (0000ms, 0677ms total)
T068C 000:898 JLINK_WriteReg(R9, 0x2000016C)  returns 0x00 (0000ms, 0677ms total)
T068C 000:898 JLINK_WriteReg(R10, 0x00000000)  returns 0x00 (0000ms, 0677ms total)
T068C 000:898 JLINK_WriteReg(R11, 0x00000000)  returns 0x00 (0000ms, 0677ms total)
T068C 000:898 JLINK_WriteReg(R12, 0x00000000)  returns 0x00 (0000ms, 0677ms total)
T068C 000:898 JLINK_WriteReg(R13 (SP), 0x20001000)  returns 0x00 (0000ms, 0677ms total)
T068C 000:898 JLINK_WriteReg(R14, 0x20000001)  returns 0x00 (0000ms, 0677ms total)
T068C 000:898 JLINK_WriteReg(R15 (PC), 0x200000FA)  returns 0x00 (0000ms, 0677ms total)
T068C 000:898 JLINK_WriteReg(XPSR, 0x01000000)  returns 0x00 (0000ms, 0677ms total)
T068C 000:898 JLINK_WriteReg(MSP, 0x20001000)  returns 0x00 (0000ms, 0677ms total)
T068C 000:898 JLINK_WriteReg(PSP, 0x20001000)  returns 0x00 (0000ms, 0677ms total)
T068C 000:898 JLINK_WriteReg(CFBP, 0x00000000)  returns 0x00 (0000ms, 0677ms total)
T068C 000:898 JLINK_SetBPEx(Addr = 0x20000000, Type = 0xFFFFFFF2)  returns 0x00000007 (0000ms, 0677ms total)
T068C 000:898 JLINK_Go() (0003ms, 0680ms total)
T068C 000:901 JLINK_IsHalted()  returns FALSE (0001ms, 0681ms total)
T068C 000:904 JLINK_IsHalted()  returns FALSE (0000ms, 0680ms total)
T068C 000:906 JLINK_IsHalted()  returns FALSE (0000ms, 0680ms total)
T068C 000:909 JLINK_IsHalted()  returns FALSE (0000ms, 0680ms total)
T068C 000:911 JLINK_IsHalted()  returns FALSE (0000ms, 0680ms total)
T068C 000:913 JLINK_IsHalted()  returns FALSE (0000ms, 0680ms total)
T068C 000:915 JLINK_IsHalted()  returns FALSE (0000ms, 0680ms total)
T068C 000:916 JLINK_IsHalted()  returns FALSE (0000ms, 0680ms total)
T068C 000:918 JLINK_IsHalted() -- CPU_ReadMem(2 bytes @ 0x20000000)  returns TRUE (0005ms, 0685ms total)
T068C 000:923 JLINK_ReadReg(R15 (PC))  returns 0x20000000 (0000ms, 0680ms total)
T068C 000:923 JLINK_ClrBPEx(BPHandle = 0x00000007)  returns 0x00 (0000ms, 0680ms total)
T068C 000:923 JLINK_ReadReg(R0)  returns 0x00000000 (0000ms, 0680ms total)
T068C 000:923 JLINK_WriteMem(0x20000170, 0x0290 Bytes, ...) - Data: 02 F0 84 FC 60 1C C4 B2 BC 42 DF DB 7D 20 C0 00 ... -- CPU_WriteMem(656 bytes @ 0x20000170)  returns 0x290 (0007ms, 0687ms total)
T068C 000:930 JLINK_WriteMem(0x20000400, 0x0170 Bytes, ...) - Data: 40 68 80 08 80 00 09 49 48 60 08 46 40 68 02 21 ... -- CPU_WriteMem(368 bytes @ 0x20000400)  returns 0x170 (0003ms, 0690ms total)
T068C 000:933 JLINK_WriteReg(R0, 0x08000C00)  returns 0x00 (0000ms, 0690ms total)
T068C 000:933 JLINK_WriteReg(R1, 0x00000400)  returns 0x00 (0000ms, 0690ms total)
T068C 000:933 JLINK_WriteReg(R2, 0x20000170)  returns 0x00 (0000ms, 0690ms total)
T068C 000:933 JLINK_WriteReg(R3, 0x00000000)  returns 0x00 (0000ms, 0690ms total)
T068C 000:933 JLINK_WriteReg(R4, 0x00000000)  returns 0x00 (0000ms, 0690ms total)
T068C 000:933 JLINK_WriteReg(R5, 0x00000000)  returns 0x00 (0000ms, 0690ms total)
T068C 000:933 JLINK_WriteReg(R6, 0x00000000)  returns 0x00 (0000ms, 0690ms total)
T068C 000:933 JLINK_WriteReg(R7, 0x00000000)  returns 0x00 (0000ms, 0690ms total)
T068C 000:933 JLINK_WriteReg(R8, 0x00000000)  returns 0x00 (0000ms, 0690ms total)
T068C 000:933 JLINK_WriteReg(R9, 0x2000016C)  returns 0x00 (0000ms, 0690ms total)
T068C 000:933 JLINK_WriteReg(R10, 0x00000000)  returns 0x00 (0000ms, 0690ms total)
T068C 000:933 JLINK_WriteReg(R11, 0x00000000)  returns 0x00 (0000ms, 0690ms total)
T068C 000:933 JLINK_WriteReg(R12, 0x00000000)  returns 0x00 (0000ms, 0690ms total)
T068C 000:933 JLINK_WriteReg(R13 (SP), 0x20001000)  returns 0x00 (0000ms, 0690ms total)
T068C 000:933 JLINK_WriteReg(R14, 0x20000001)  returns 0x00 (0000ms, 0690ms total)
T068C 000:933 JLINK_WriteReg(R15 (PC), 0x200000FA)  returns 0x00 (0000ms, 0690ms total)
T068C 000:933 JLINK_WriteReg(XPSR, 0x01000000)  returns 0x00 (0000ms, 0690ms total)
T068C 000:933 JLINK_WriteReg(MSP, 0x20001000)  returns 0x00 (0000ms, 0690ms total)
T068C 000:933 JLINK_WriteReg(PSP, 0x20001000)  returns 0x00 (0000ms, 0690ms total)
T068C 000:933 JLINK_WriteReg(CFBP, 0x00000000)  returns 0x00 (0000ms, 0690ms total)
T068C 000:933 JLINK_SetBPEx(Addr = 0x20000000, Type = 0xFFFFFFF2)  returns 0x00000008 (0000ms, 0690ms total)
T068C 000:933 JLINK_Go() (0003ms, 0693ms total)
T068C 000:936 JLINK_IsHalted()  returns FALSE (0001ms, 0694ms total)
T068C 000:941 JLINK_IsHalted()  returns FALSE (0000ms, 0693ms total)
T068C 000:943 JLINK_IsHalted()  returns FALSE (0000ms, 0693ms total)
T068C 000:945 JLINK_IsHalted()  returns FALSE (0001ms, 0694ms total)
T068C 000:947 JLINK_IsHalted()  returns FALSE (0000ms, 0693ms total)
T068C 000:949 JLINK_IsHalted()  returns FALSE (0001ms, 0694ms total)
T068C 000:951 JLINK_IsHalted()  returns FALSE (0001ms, 0694ms total)
T068C 000:955 JLINK_IsHalted() -- CPU_ReadMem(2 bytes @ 0x20000000)  returns TRUE (0005ms, 0698ms total)
T068C 000:960 JLINK_ReadReg(R15 (PC))  returns 0x20000000 (0000ms, 0693ms total)
T068C 000:960 JLINK_ClrBPEx(BPHandle = 0x00000008)  returns 0x00 (0000ms, 0693ms total)
T068C 000:960 JLINK_ReadReg(R0)  returns 0x00000000 (0000ms, 0693ms total)
T068C 000:960 JLINK_WriteMem(0x20000170, 0x0290 Bytes, ...) - Data: DF 48 02 F0 9F FE 00 28 F8 D0 68 46 03 F0 3C F9 ... -- CPU_WriteMem(656 bytes @ 0x20000170)  returns 0x290 (0006ms, 0699ms total)
T068C 000:966 JLINK_WriteMem(0x20000400, 0x0170 Bytes, ...) - Data: 00 F0 D4 FB 2A 46 33 46 84 A0 00 F0 CF FB 28 46 ... -- CPU_WriteMem(368 bytes @ 0x20000400)  returns 0x170 (0004ms, 0703ms total)
T068C 000:970 JLINK_WriteReg(R0, 0x08001000)  returns 0x00 (0000ms, 0703ms total)
T068C 000:970 JLINK_WriteReg(R1, 0x00000400)  returns 0x00 (0000ms, 0703ms total)
T068C 000:970 JLINK_WriteReg(R2, 0x20000170)  returns 0x00 (0000ms, 0703ms total)
T068C 000:970 JLINK_WriteReg(R3, 0x00000000)  returns 0x00 (0000ms, 0703ms total)
T068C 000:970 JLINK_WriteReg(R4, 0x00000000)  returns 0x00 (0000ms, 0703ms total)
T068C 000:970 JLINK_WriteReg(R5, 0x00000000)  returns 0x00 (0000ms, 0703ms total)
T068C 000:970 JLINK_WriteReg(R6, 0x00000000)  returns 0x00 (0000ms, 0703ms total)
T068C 000:970 JLINK_WriteReg(R7, 0x00000000)  returns 0x00 (0000ms, 0703ms total)
T068C 000:970 JLINK_WriteReg(R8, 0x00000000)  returns 0x00 (0000ms, 0703ms total)
T068C 000:970 JLINK_WriteReg(R9, 0x2000016C)  returns 0x00 (0000ms, 0703ms total)
T068C 000:970 JLINK_WriteReg(R10, 0x00000000)  returns 0x00 (0000ms, 0703ms total)
T068C 000:970 JLINK_WriteReg(R11, 0x00000000)  returns 0x00 (0000ms, 0703ms total)
T068C 000:970 JLINK_WriteReg(R12, 0x00000000)  returns 0x00 (0000ms, 0703ms total)
T068C 000:970 JLINK_WriteReg(R13 (SP), 0x20001000)  returns 0x00 (0000ms, 0703ms total)
T068C 000:970 JLINK_WriteReg(R14, 0x20000001)  returns 0x00 (0000ms, 0703ms total)
T068C 000:970 JLINK_WriteReg(R15 (PC), 0x200000FA)  returns 0x00 (0000ms, 0703ms total)
T068C 000:970 JLINK_WriteReg(XPSR, 0x01000000)  returns 0x00 (0000ms, 0703ms total)
T068C 000:970 JLINK_WriteReg(MSP, 0x20001000)  returns 0x00 (0000ms, 0703ms total)
T068C 000:970 JLINK_WriteReg(PSP, 0x20001000)  returns 0x00 (0000ms, 0703ms total)
T068C 000:970 JLINK_WriteReg(CFBP, 0x00000000)  returns 0x00 (0000ms, 0703ms total)
T068C 000:970 JLINK_SetBPEx(Addr = 0x20000000, Type = 0xFFFFFFF2)  returns 0x00000009 (0000ms, 0703ms total)
T068C 000:970 JLINK_Go() (0002ms, 0705ms total)
T068C 000:972 JLINK_IsHalted()  returns FALSE (0001ms, 0706ms total)
T068C 000:976 JLINK_IsHalted()  returns FALSE (0000ms, 0705ms total)
T068C 000:978 JLINK_IsHalted()  returns FALSE (0001ms, 0706ms total)
T068C 000:981 JLINK_IsHalted()  returns FALSE (0000ms, 0705ms total)
T068C 000:983 JLINK_IsHalted()  returns FALSE (0001ms, 0706ms total)
T068C 000:989 JLINK_IsHalted()  returns FALSE (0001ms, 0706ms total)
T068C 000:992 JLINK_IsHalted() -- CPU_ReadMem(2 bytes @ 0x20000000)  returns TRUE (0005ms, 0710ms total)
T068C 000:997 JLINK_ReadReg(R15 (PC))  returns 0x20000000 (0000ms, 0705ms total)
T068C 000:997 JLINK_ClrBPEx(BPHandle = 0x00000009)  returns 0x00 (0000ms, 0705ms total)
T068C 000:997 JLINK_ReadReg(R0)  returns 0x00000000 (0000ms, 0705ms total)
T068C 000:997 JLINK_WriteMem(0x20000170, 0x0290 Bytes, ...) - Data: 58 20 69 73 20 6C 6F 63 6B 0D 0A 00 66 69 72 73 ... -- CPU_WriteMem(656 bytes @ 0x20000170)  returns 0x290 (0005ms, 0710ms total)
T068C 001:002 JLINK_WriteMem(0x20000400, 0x0170 Bytes, ...) - Data: 88 43 06 49 08 63 08 46 40 6B 40 08 40 00 48 63 ... -- CPU_WriteMem(368 bytes @ 0x20000400)  returns 0x170 (0004ms, 0714ms total)
T068C 001:006 JLINK_WriteReg(R0, 0x08001400)  returns 0x00 (0000ms, 0714ms total)
T068C 001:006 JLINK_WriteReg(R1, 0x00000400)  returns 0x00 (0000ms, 0714ms total)
T068C 001:007 JLINK_WriteReg(R2, 0x20000170)  returns 0x00 (0000ms, 0715ms total)
T068C 001:007 JLINK_WriteReg(R3, 0x00000000)  returns 0x00 (0000ms, 0715ms total)
T068C 001:007 JLINK_WriteReg(R4, 0x00000000)  returns 0x00 (0000ms, 0715ms total)
T068C 001:007 JLINK_WriteReg(R5, 0x00000000)  returns 0x00 (0000ms, 0715ms total)
T068C 001:007 JLINK_WriteReg(R6, 0x00000000)  returns 0x00 (0000ms, 0715ms total)
T068C 001:007 JLINK_WriteReg(R7, 0x00000000)  returns 0x00 (0000ms, 0715ms total)
T068C 001:007 JLINK_WriteReg(R8, 0x00000000)  returns 0x00 (0000ms, 0715ms total)
T068C 001:007 JLINK_WriteReg(R9, 0x2000016C)  returns 0x00 (0000ms, 0715ms total)
T068C 001:007 JLINK_WriteReg(R10, 0x00000000)  returns 0x00 (0000ms, 0715ms total)
T068C 001:007 JLINK_WriteReg(R11, 0x00000000)  returns 0x00 (0000ms, 0715ms total)
T068C 001:007 JLINK_WriteReg(R12, 0x00000000)  returns 0x00 (0000ms, 0715ms total)
T068C 001:007 JLINK_WriteReg(R13 (SP), 0x20001000)  returns 0x00 (0000ms, 0715ms total)
T068C 001:007 JLINK_WriteReg(R14, 0x20000001)  returns 0x00 (0000ms, 0715ms total)
T068C 001:007 JLINK_WriteReg(R15 (PC), 0x200000FA)  returns 0x00 (0000ms, 0715ms total)
T068C 001:007 JLINK_WriteReg(XPSR, 0x01000000)  returns 0x00 (0000ms, 0715ms total)
T068C 001:007 JLINK_WriteReg(MSP, 0x20001000)  returns 0x00 (0000ms, 0715ms total)
T068C 001:007 JLINK_WriteReg(PSP, 0x20001000)  returns 0x00 (0000ms, 0715ms total)
T068C 001:007 JLINK_WriteReg(CFBP, 0x00000000)  returns 0x00 (0000ms, 0715ms total)
T068C 001:007 JLINK_SetBPEx(Addr = 0x20000000, Type = 0xFFFFFFF2)  returns 0x0000000A (0000ms, 0715ms total)
T068C 001:007 JLINK_Go() (0002ms, 0717ms total)
T068C 001:009 JLINK_IsHalted()  returns FALSE (0001ms, 0718ms total)
T068C 001:013 JLINK_IsHalted()  returns FALSE (0000ms, 0717ms total)
T068C 001:015 JLINK_IsHalted()  returns FALSE (0000ms, 0717ms total)
T068C 001:019 JLINK_IsHalted()  returns FALSE (0000ms, 0717ms total)
T068C 001:021 JLINK_IsHalted()  returns FALSE (0000ms, 0717ms total)
T068C 001:023 JLINK_IsHalted()  returns FALSE (0000ms, 0717ms total)
T068C 001:025 JLINK_IsHalted()  returns FALSE (0001ms, 0718ms total)
T068C 001:028 JLINK_IsHalted() -- CPU_ReadMem(2 bytes @ 0x20000000)  returns TRUE (0005ms, 0722ms total)
T068C 001:033 JLINK_ReadReg(R15 (PC))  returns 0x20000000 (0000ms, 0717ms total)
T068C 001:033 JLINK_ClrBPEx(BPHandle = 0x0000000A)  returns 0x00 (0000ms, 0717ms total)
T068C 001:033 JLINK_ReadReg(R0)  returns 0x00000000 (0000ms, 0717ms total)
T068C 001:033 JLINK_WriteMem(0x20000170, 0x0290 Bytes, ...) - Data: 0E 48 02 F0 9F FA 00 28 04 D0 0B 48 00 68 0C 49 ... -- CPU_WriteMem(656 bytes @ 0x20000170)  returns 0x290 (0006ms, 0723ms total)
T068C 001:039 JLINK_WriteMem(0x20000400, 0x0170 Bytes, ...) - Data: 08 C1 00 2A FA D1 70 47 70 47 00 20 01 E0 01 C1 ... -- CPU_WriteMem(368 bytes @ 0x20000400)  returns 0x170 (0004ms, 0727ms total)
T068C 001:043 JLINK_WriteReg(R0, 0x08001800)  returns 0x00 (0000ms, 0727ms total)
T068C 001:043 JLINK_WriteReg(R1, 0x00000400)  returns 0x00 (0000ms, 0727ms total)
T068C 001:043 JLINK_WriteReg(R2, 0x20000170)  returns 0x00 (0000ms, 0727ms total)
T068C 001:043 JLINK_WriteReg(R3, 0x00000000)  returns 0x00 (0000ms, 0727ms total)
T068C 001:043 JLINK_WriteReg(R4, 0x00000000)  returns 0x00 (0000ms, 0727ms total)
T068C 001:043 JLINK_WriteReg(R5, 0x00000000)  returns 0x00 (0000ms, 0727ms total)
T068C 001:043 JLINK_WriteReg(R6, 0x00000000)  returns 0x00 (0000ms, 0727ms total)
T068C 001:043 JLINK_WriteReg(R7, 0x00000000)  returns 0x00 (0000ms, 0727ms total)
T068C 001:043 JLINK_WriteReg(R8, 0x00000000)  returns 0x00 (0000ms, 0727ms total)
T068C 001:043 JLINK_WriteReg(R9, 0x2000016C)  returns 0x00 (0000ms, 0727ms total)
T068C 001:043 JLINK_WriteReg(R10, 0x00000000)  returns 0x00 (0000ms, 0727ms total)
T068C 001:043 JLINK_WriteReg(R11, 0x00000000)  returns 0x00 (0000ms, 0727ms total)
T068C 001:043 JLINK_WriteReg(R12, 0x00000000)  returns 0x00 (0000ms, 0727ms total)
T068C 001:043 JLINK_WriteReg(R13 (SP), 0x20001000)  returns 0x00 (0000ms, 0727ms total)
T068C 001:043 JLINK_WriteReg(R14, 0x20000001)  returns 0x00 (0000ms, 0727ms total)
T068C 001:043 JLINK_WriteReg(R15 (PC), 0x200000FA)  returns 0x00 (0000ms, 0727ms total)
T068C 001:043 JLINK_WriteReg(XPSR, 0x01000000)  returns 0x00 (0000ms, 0727ms total)
T068C 001:043 JLINK_WriteReg(MSP, 0x20001000)  returns 0x00 (0000ms, 0727ms total)
T068C 001:043 JLINK_WriteReg(PSP, 0x20001000)  returns 0x00 (0000ms, 0727ms total)
T068C 001:043 JLINK_WriteReg(CFBP, 0x00000000)  returns 0x00 (0000ms, 0727ms total)
T068C 001:043 JLINK_SetBPEx(Addr = 0x20000000, Type = 0xFFFFFFF2)  returns 0x0000000B (0000ms, 0727ms total)
T068C 001:043 JLINK_Go() (0003ms, 0730ms total)
T068C 001:046 JLINK_IsHalted()  returns FALSE (0000ms, 0730ms total)
T068C 001:049 JLINK_IsHalted()  returns FALSE (0001ms, 0731ms total)
T068C 001:052 JLINK_IsHalted()  returns FALSE (0000ms, 0730ms total)
T068C 001:054 JLINK_IsHalted()  returns FALSE (0000ms, 0730ms total)
T068C 001:056 JLINK_IsHalted()  returns FALSE (0000ms, 0730ms total)
T068C 001:058 JLINK_IsHalted()  returns FALSE (0001ms, 0731ms total)
T068C 001:060 JLINK_IsHalted()  returns FALSE (0000ms, 0730ms total)
T068C 001:062 JLINK_IsHalted()  returns FALSE (0000ms, 0730ms total)
T068C 001:066 JLINK_IsHalted() -- CPU_ReadMem(2 bytes @ 0x20000000)  returns TRUE (0005ms, 0735ms total)
T068C 001:071 JLINK_ReadReg(R15 (PC))  returns 0x20000000 (0000ms, 0730ms total)
T068C 001:071 JLINK_ClrBPEx(BPHandle = 0x0000000B)  returns 0x00 (0000ms, 0730ms total)
T068C 001:071 JLINK_ReadReg(R0)  returns 0x00000000 (0000ms, 0730ms total)
T068C 001:071 JLINK_WriteMem(0x20000170, 0x0290 Bytes, ...) - Data: FF B5 97 B0 06 46 00 25 18 E2 25 28 77 D1 00 24 ... -- CPU_WriteMem(656 bytes @ 0x20000170)  returns 0x290 (0006ms, 0736ms total)
T068C 001:077 JLINK_WriteMem(0x20000400, 0x0170 Bytes, ...) - Data: 00 21 04 20 04 43 01 91 08 27 03 E0 08 20 00 21 ... -- CPU_WriteMem(368 bytes @ 0x20000400)  returns 0x170 (0003ms, 0739ms total)
T068C 001:080 JLINK_WriteReg(R0, 0x08001C00)  returns 0x00 (0001ms, 0740ms total)
T068C 001:081 JLINK_WriteReg(R1, 0x00000400)  returns 0x00 (0000ms, 0740ms total)
T068C 001:081 JLINK_WriteReg(R2, 0x20000170)  returns 0x00 (0000ms, 0740ms total)
T068C 001:081 JLINK_WriteReg(R3, 0x00000000)  returns 0x00 (0000ms, 0740ms total)
T068C 001:081 JLINK_WriteReg(R4, 0x00000000)  returns 0x00 (0000ms, 0740ms total)
T068C 001:081 JLINK_WriteReg(R5, 0x00000000)  returns 0x00 (0000ms, 0740ms total)
T068C 001:081 JLINK_WriteReg(R6, 0x00000000)  returns 0x00 (0000ms, 0740ms total)
T068C 001:081 JLINK_WriteReg(R7, 0x00000000)  returns 0x00 (0000ms, 0740ms total)
T068C 001:081 JLINK_WriteReg(R8, 0x00000000)  returns 0x00 (0000ms, 0740ms total)
T068C 001:081 JLINK_WriteReg(R9, 0x2000016C)  returns 0x00 (0000ms, 0740ms total)
T068C 001:081 JLINK_WriteReg(R10, 0x00000000)  returns 0x00 (0000ms, 0740ms total)
T068C 001:081 JLINK_WriteReg(R11, 0x00000000)  returns 0x00 (0000ms, 0740ms total)
T068C 001:081 JLINK_WriteReg(R12, 0x00000000)  returns 0x00 (0000ms, 0740ms total)
T068C 001:081 JLINK_WriteReg(R13 (SP), 0x20001000)  returns 0x00 (0000ms, 0740ms total)
T068C 001:081 JLINK_WriteReg(R14, 0x20000001)  returns 0x00 (0000ms, 0740ms total)
T068C 001:081 JLINK_WriteReg(R15 (PC), 0x200000FA)  returns 0x00 (0000ms, 0740ms total)
T068C 001:081 JLINK_WriteReg(XPSR, 0x01000000)  returns 0x00 (0000ms, 0740ms total)
T068C 001:081 JLINK_WriteReg(MSP, 0x20001000)  returns 0x00 (0000ms, 0740ms total)
T068C 001:081 JLINK_WriteReg(PSP, 0x20001000)  returns 0x00 (0000ms, 0740ms total)
T068C 001:081 JLINK_WriteReg(CFBP, 0x00000000)  returns 0x00 (0000ms, 0740ms total)
T068C 001:081 JLINK_SetBPEx(Addr = 0x20000000, Type = 0xFFFFFFF2)  returns 0x0000000C (0000ms, 0740ms total)
T068C 001:081 JLINK_Go() (0002ms, 0742ms total)
T068C 001:083 JLINK_IsHalted()  returns FALSE (0001ms, 0743ms total)
T068C 001:086 JLINK_IsHalted()  returns FALSE (0001ms, 0743ms total)
T068C 001:089 JLINK_IsHalted()  returns FALSE (0000ms, 0742ms total)
T068C 001:091 JLINK_IsHalted()  returns FALSE (0000ms, 0742ms total)
T068C 001:093 JLINK_IsHalted()  returns FALSE (0000ms, 0742ms total)
T068C 001:100 JLINK_IsHalted() -- CPU_ReadMem(2 bytes @ 0x20000000)  returns TRUE (0005ms, 0747ms total)
T068C 001:105 JLINK_ReadReg(R15 (PC))  returns 0x20000000 (0000ms, 0742ms total)
T068C 001:105 JLINK_ClrBPEx(BPHandle = 0x0000000C)  returns 0x00 (0000ms, 0742ms total)
T068C 001:105 JLINK_ReadReg(R0)  returns 0x00000000 (0000ms, 0742ms total)
T068C 001:105 JLINK_WriteMem(0x20000170, 0x0290 Bytes, ...) - Data: 01 90 00 29 F1 DC 63 E1 09 28 01 00 30 31 32 33 ... -- CPU_WriteMem(656 bytes @ 0x20000170)  returns 0x290 (0006ms, 0748ms total)
T068C 001:111 JLINK_WriteMem(0x20000400, 0x0170 Bytes, ...) - Data: 90 47 00 98 6D 1C 40 1C 00 90 02 98 40 1E 02 90 ... -- CPU_WriteMem(368 bytes @ 0x20000400)  returns 0x170 (0003ms, 0751ms total)
T068C 001:114 JLINK_WriteReg(R0, 0x08002000)  returns 0x00 (0000ms, 0751ms total)
T068C 001:114 JLINK_WriteReg(R1, 0x00000400)  returns 0x00 (0000ms, 0751ms total)
T068C 001:114 JLINK_WriteReg(R2, 0x20000170)  returns 0x00 (0000ms, 0751ms total)
T068C 001:114 JLINK_WriteReg(R3, 0x00000000)  returns 0x00 (0000ms, 0751ms total)
T068C 001:114 JLINK_WriteReg(R4, 0x00000000)  returns 0x00 (0000ms, 0751ms total)
T068C 001:114 JLINK_WriteReg(R5, 0x00000000)  returns 0x00 (0000ms, 0751ms total)
T068C 001:114 JLINK_WriteReg(R6, 0x00000000)  returns 0x00 (0000ms, 0751ms total)
T068C 001:114 JLINK_WriteReg(R7, 0x00000000)  returns 0x00 (0000ms, 0751ms total)
T068C 001:114 JLINK_WriteReg(R8, 0x00000000)  returns 0x00 (0000ms, 0751ms total)
T068C 001:114 JLINK_WriteReg(R9, 0x2000016C)  returns 0x00 (0000ms, 0751ms total)
T068C 001:114 JLINK_WriteReg(R10, 0x00000000)  returns 0x00 (0000ms, 0751ms total)
T068C 001:114 JLINK_WriteReg(R11, 0x00000000)  returns 0x00 (0000ms, 0751ms total)
T068C 001:114 JLINK_WriteReg(R12, 0x00000000)  returns 0x00 (0000ms, 0751ms total)
T068C 001:114 JLINK_WriteReg(R13 (SP), 0x20001000)  returns 0x00 (0000ms, 0751ms total)
T068C 001:114 JLINK_WriteReg(R14, 0x20000001)  returns 0x00 (0000ms, 0751ms total)
T068C 001:114 JLINK_WriteReg(R15 (PC), 0x200000FA)  returns 0x00 (0000ms, 0751ms total)
T068C 001:114 JLINK_WriteReg(XPSR, 0x01000000)  returns 0x00 (0000ms, 0751ms total)
T068C 001:114 JLINK_WriteReg(MSP, 0x20001000)  returns 0x00 (0001ms, 0752ms total)
T068C 001:115 JLINK_WriteReg(PSP, 0x20001000)  returns 0x00 (0000ms, 0752ms total)
T068C 001:115 JLINK_WriteReg(CFBP, 0x00000000)  returns 0x00 (0000ms, 0752ms total)
T068C 001:115 JLINK_SetBPEx(Addr = 0x20000000, Type = 0xFFFFFFF2)  returns 0x0000000D (0000ms, 0752ms total)
T068C 001:115 JLINK_Go() (0002ms, 0754ms total)
T068C 001:117 JLINK_IsHalted()  returns FALSE (0000ms, 0754ms total)
T068C 001:121 JLINK_IsHalted()  returns FALSE (0000ms, 0754ms total)
T068C 001:123 JLINK_IsHalted()  returns FALSE (0000ms, 0754ms total)
T068C 001:125 JLINK_IsHalted()  returns FALSE (0000ms, 0754ms total)
T068C 001:128 JLINK_IsHalted()  returns FALSE (0001ms, 0755ms total)
T068C 001:131 JLINK_IsHalted()  returns FALSE (0000ms, 0754ms total)
T068C 001:133 JLINK_IsHalted()  returns FALSE (0000ms, 0754ms total)
T068C 001:135 JLINK_IsHalted() -- CPU_ReadMem(2 bytes @ 0x20000000)  returns TRUE (0005ms, 0759ms total)
T068C 001:140 JLINK_ReadReg(R15 (PC))  returns 0x20000000 (0000ms, 0754ms total)
T068C 001:140 JLINK_ClrBPEx(BPHandle = 0x0000000D)  returns 0x00 (0000ms, 0754ms total)
T068C 001:140 JLINK_ReadReg(R0)  returns 0x00000000 (0000ms, 0754ms total)
T068C 001:141 JLINK_WriteMem(0x20000170, 0x0290 Bytes, ...) - Data: 47 FD 01 F0 5B FB 34 20 01 F0 F0 FA FF 21 09 31 ... -- CPU_WriteMem(656 bytes @ 0x20000170)  returns 0x290 (0006ms, 0760ms total)
T068C 001:147 JLINK_WriteMem(0x20000400, 0x0170 Bytes, ...) - Data: 48 60 FF 20 09 30 60 43 44 49 40 18 21 46 42 68 ... -- CPU_WriteMem(368 bytes @ 0x20000400)  returns 0x170 (0003ms, 0763ms total)
T068C 001:150 JLINK_WriteReg(R0, 0x08002400)  returns 0x00 (0000ms, 0763ms total)
T068C 001:150 JLINK_WriteReg(R1, 0x00000400)  returns 0x00 (0000ms, 0763ms total)
T068C 001:150 JLINK_WriteReg(R2, 0x20000170)  returns 0x00 (0000ms, 0763ms total)
T068C 001:150 JLINK_WriteReg(R3, 0x00000000)  returns 0x00 (0000ms, 0763ms total)
T068C 001:150 JLINK_WriteReg(R4, 0x00000000)  returns 0x00 (0000ms, 0763ms total)
T068C 001:150 JLINK_WriteReg(R5, 0x00000000)  returns 0x00 (0000ms, 0763ms total)
T068C 001:150 JLINK_WriteReg(R6, 0x00000000)  returns 0x00 (0000ms, 0763ms total)
T068C 001:150 JLINK_WriteReg(R7, 0x00000000)  returns 0x00 (0000ms, 0763ms total)
T068C 001:150 JLINK_WriteReg(R8, 0x00000000)  returns 0x00 (0000ms, 0763ms total)
T068C 001:150 JLINK_WriteReg(R9, 0x2000016C)  returns 0x00 (0000ms, 0763ms total)
T068C 001:150 JLINK_WriteReg(R10, 0x00000000)  returns 0x00 (0000ms, 0763ms total)
T068C 001:150 JLINK_WriteReg(R11, 0x00000000)  returns 0x00 (0000ms, 0763ms total)
T068C 001:150 JLINK_WriteReg(R12, 0x00000000)  returns 0x00 (0000ms, 0763ms total)
T068C 001:150 JLINK_WriteReg(R13 (SP), 0x20001000)  returns 0x00 (0000ms, 0763ms total)
T068C 001:150 JLINK_WriteReg(R14, 0x20000001)  returns 0x00 (0000ms, 0763ms total)
T068C 001:150 JLINK_WriteReg(R15 (PC), 0x200000FA)  returns 0x00 (0000ms, 0763ms total)
T068C 001:150 JLINK_WriteReg(XPSR, 0x01000000)  returns 0x00 (0000ms, 0763ms total)
T068C 001:150 JLINK_WriteReg(MSP, 0x20001000)  returns 0x00 (0000ms, 0763ms total)
T068C 001:150 JLINK_WriteReg(PSP, 0x20001000)  returns 0x00 (0000ms, 0763ms total)
T068C 001:150 JLINK_WriteReg(CFBP, 0x00000000)  returns 0x00 (0000ms, 0763ms total)
T068C 001:150 JLINK_SetBPEx(Addr = 0x20000000, Type = 0xFFFFFFF2)  returns 0x0000000E (0000ms, 0763ms total)
T068C 001:150 JLINK_Go() (0003ms, 0766ms total)
T068C 001:153 JLINK_IsHalted()  returns FALSE (0001ms, 0767ms total)
T068C 001:156 JLINK_IsHalted()  returns FALSE (0001ms, 0767ms total)
T068C 001:160 JLINK_IsHalted()  returns FALSE (0000ms, 0766ms total)
T068C 001:162 JLINK_IsHalted()  returns FALSE (0000ms, 0766ms total)
T068C 001:164 JLINK_IsHalted()  returns FALSE (0000ms, 0766ms total)
T068C 001:166 JLINK_IsHalted()  returns FALSE (0000ms, 0766ms total)
T068C 001:168 JLINK_IsHalted()  returns FALSE (0001ms, 0767ms total)
T068C 001:171 JLINK_IsHalted() -- CPU_ReadMem(2 bytes @ 0x20000000)  returns TRUE (0005ms, 0771ms total)
T068C 001:176 JLINK_ReadReg(R15 (PC))  returns 0x20000000 (0000ms, 0766ms total)
T068C 001:176 JLINK_ClrBPEx(BPHandle = 0x0000000E)  returns 0x00 (0000ms, 0766ms total)
T068C 001:176 JLINK_ReadReg(R0)  returns 0x00000000 (0000ms, 0766ms total)
T068C 001:176 JLINK_WriteMem(0x20000170, 0x0290 Bytes, ...) - Data: 20 77 72 69 74 65 20 72 65 67 69 73 74 65 72 20 ... -- CPU_WriteMem(656 bytes @ 0x20000170)  returns 0x290 (0006ms, 0772ms total)
T068C 001:182 JLINK_WriteMem(0x20000400, 0x0170 Bytes, ...) - Data: 65 0D 0A 00 0C 03 00 20 66 70 67 61 20 72 65 61 ... -- CPU_WriteMem(368 bytes @ 0x20000400)  returns 0x170 (0004ms, 0776ms total)
T068C 001:186 JLINK_WriteReg(R0, 0x08002800)  returns 0x00 (0000ms, 0776ms total)
T068C 001:186 JLINK_WriteReg(R1, 0x00000400)  returns 0x00 (0000ms, 0776ms total)
T068C 001:186 JLINK_WriteReg(R2, 0x20000170)  returns 0x00 (0000ms, 0776ms total)
T068C 001:186 JLINK_WriteReg(R3, 0x00000000)  returns 0x00 (0000ms, 0776ms total)
T068C 001:186 JLINK_WriteReg(R4, 0x00000000)  returns 0x00 (0000ms, 0776ms total)
T068C 001:186 JLINK_WriteReg(R5, 0x00000000)  returns 0x00 (0000ms, 0776ms total)
T068C 001:186 JLINK_WriteReg(R6, 0x00000000)  returns 0x00 (0000ms, 0776ms total)
T068C 001:186 JLINK_WriteReg(R7, 0x00000000)  returns 0x00 (0000ms, 0776ms total)
T068C 001:186 JLINK_WriteReg(R8, 0x00000000)  returns 0x00 (0000ms, 0776ms total)
T068C 001:186 JLINK_WriteReg(R9, 0x2000016C)  returns 0x00 (0000ms, 0776ms total)
T068C 001:186 JLINK_WriteReg(R10, 0x00000000)  returns 0x00 (0000ms, 0776ms total)
T068C 001:186 JLINK_WriteReg(R11, 0x00000000)  returns 0x00 (0000ms, 0776ms total)
T068C 001:186 JLINK_WriteReg(R12, 0x00000000)  returns 0x00 (0000ms, 0776ms total)
T068C 001:186 JLINK_WriteReg(R13 (SP), 0x20001000)  returns 0x00 (0000ms, 0776ms total)
T068C 001:186 JLINK_WriteReg(R14, 0x20000001)  returns 0x00 (0000ms, 0776ms total)
T068C 001:186 JLINK_WriteReg(R15 (PC), 0x200000FA)  returns 0x00 (0000ms, 0776ms total)
T068C 001:186 JLINK_WriteReg(XPSR, 0x01000000)  returns 0x00 (0000ms, 0776ms total)
T068C 001:186 JLINK_WriteReg(MSP, 0x20001000)  returns 0x00 (0000ms, 0776ms total)
T068C 001:186 JLINK_WriteReg(PSP, 0x20001000)  returns 0x00 (0000ms, 0776ms total)
T068C 001:186 JLINK_WriteReg(CFBP, 0x00000000)  returns 0x00 (0000ms, 0776ms total)
T068C 001:186 JLINK_SetBPEx(Addr = 0x20000000, Type = 0xFFFFFFF2)  returns 0x0000000F (0000ms, 0776ms total)
T068C 001:186 JLINK_Go() (0002ms, 0778ms total)
T068C 001:188 JLINK_IsHalted()  returns FALSE (0001ms, 0779ms total)
T068C 001:191 JLINK_IsHalted()  returns FALSE (0001ms, 0779ms total)
T068C 001:194 JLINK_IsHalted()  returns FALSE (0000ms, 0778ms total)
T068C 001:196 JLINK_IsHalted()  returns FALSE (0000ms, 0778ms total)
T068C 001:198 JLINK_IsHalted()  returns FALSE (0001ms, 0779ms total)
T068C 001:201 JLINK_IsHalted()  returns FALSE (0001ms, 0779ms total)
T068C 001:209 JLINK_IsHalted() -- CPU_ReadMem(2 bytes @ 0x20000000)  returns TRUE (0005ms, 0783ms total)
T068C 001:214 JLINK_ReadReg(R15 (PC))  returns 0x20000000 (0000ms, 0778ms total)
T068C 001:214 JLINK_ClrBPEx(BPHandle = 0x0000000F)  returns 0x00 (0000ms, 0778ms total)
T068C 001:214 JLINK_ReadReg(R0)  returns 0x00000000 (0000ms, 0778ms total)
T068C 001:215 JLINK_WriteMem(0x20000170, 0x0290 Bytes, ...) - Data: 00 26 00 24 00 BF 1D E0 FF 20 09 30 60 43 40 49 ... -- CPU_WriteMem(656 bytes @ 0x20000170)  returns 0x290 (0005ms, 0783ms total)
T068C 001:220 JLINK_WriteMem(0x20000400, 0x0170 Bytes, ...) - Data: 6A 48 01 88 6A 48 00 F0 E7 FF 18 E0 02 98 00 28 ... -- CPU_WriteMem(368 bytes @ 0x20000400)  returns 0x170 (0004ms, 0787ms total)
